! freq S11 S21 S12 S22 
# MHz S RI R 50.00  
0.000000000   0.008998   0.000000   0.978836  -0.000000   0.978662   0.000000   0.009150  -0.000000 
2.500000000   0.009514   0.000681   0.977840  -0.027397   0.977614  -0.027284   0.009716   0.000635 
5.000000000   0.009982   0.000169   0.975755  -0.053102   0.975503  -0.052617   0.010286   0.000102 
7.500000000   0.009099  -0.000480   0.973988  -0.077584   0.973771  -0.076676   0.009495  -0.000569 
10.000000000   0.007642   0.000018   0.972346  -0.102480   0.971843  -0.101367   0.008125  -0.000103 
12.500000000   0.007185   0.000674   0.969047  -0.128183   0.967804  -0.126970   0.007813   0.000546 
15.000000000   0.007674  -0.000086   0.963325  -0.153558   0.961504  -0.152242   0.008535  -0.000240 
17.500000000   0.007906  -0.001624   0.956934  -0.177888   0.955318  -0.176717   0.009045  -0.001917 
20.000000000   0.007458  -0.002318   0.951819  -0.201789   0.950935  -0.201179   0.008897  -0.002817 
22.500000000   0.006704  -0.002355   0.947157  -0.226083   0.946845  -0.226130   0.008496  -0.002943 
25.000000000   0.005710  -0.003113   0.940504  -0.250774   0.940440  -0.251197   0.007931  -0.003648 
27.500000000   0.004372  -0.004775   0.931603  -0.275480   0.931762  -0.276008   0.007054  -0.005358 
30.000000000   0.003033  -0.006579   0.922809  -0.300097   0.923146  -0.300622   0.006147  -0.007472 
32.500000000   0.002100  -0.008390   0.915457  -0.324543   0.915644  -0.325034   0.005634  -0.009716 
35.000000000   0.001531  -0.010084   0.908249  -0.348376   0.908071  -0.348952   0.005558  -0.011805 
37.500000000   0.001139  -0.010784   0.899695  -0.371237   0.899409  -0.372077   0.005732  -0.012963 
40.000000000   0.000938  -0.010414   0.890025  -0.393273   0.890023  -0.394116   0.006090  -0.013251 
42.500000000   0.000713  -0.010483   0.879921  -0.414788   0.880270  -0.414954   0.006362  -0.014025 
45.000000000  -0.000103  -0.011879   0.869351  -0.435856   0.869880  -0.435250   0.006010  -0.015940 
47.500000000  -0.001510  -0.013586   0.858601  -0.456464   0.859185  -0.456001   0.005111  -0.018021 
50.000000000  -0.002618  -0.014832   0.848285  -0.476687   0.848813  -0.477006   0.004594  -0.019688 
52.500000000  -0.003182  -0.016270   0.837217  -0.496542   0.837572  -0.496827   0.004648  -0.021655 
55.000000000  -0.004784  -0.017935   0.822884  -0.516063   0.823156  -0.515152   0.003575  -0.023943 
57.500000000  -0.008913  -0.018547   0.805674  -0.535480   0.806116  -0.533770  -0.000128  -0.025301 
60.000000000  -0.014064  -0.018130   0.789703  -0.554888   0.790279  -0.553945  -0.004791  -0.025681 
62.500000000  -0.016725  -0.018378   0.777290  -0.573786   0.777629  -0.574276  -0.006813  -0.026621 
65.000000000  -0.015739  -0.019395   0.765466  -0.591416   0.765421  -0.592580  -0.005232  -0.028317 
67.500000000  -0.014005  -0.019446   0.750534  -0.607991   0.750322  -0.609141  -0.003154  -0.029335 
70.000000000  -0.014544  -0.018679   0.733849  -0.624658   0.733518  -0.625945  -0.003414  -0.029777 
72.500000000  -0.016862  -0.019372   0.719303  -0.641966   0.718612  -0.643367  -0.005174  -0.031482 
75.000000000  -0.018979  -0.021708   0.706916  -0.659389   0.706011  -0.660180  -0.006499  -0.034549 
77.500000000  -0.020841  -0.023055   0.693156  -0.676380   0.692687  -0.676201  -0.007695  -0.036852 
80.000000000  -0.023400  -0.022463   0.676836  -0.693080   0.676951  -0.692563  -0.009800  -0.037682 
82.500000000  -0.025960  -0.022035   0.660336  -0.709509   0.660221  -0.709298  -0.011872  -0.038690 
85.000000000  -0.027252  -0.022820   0.644820  -0.724983   0.643909  -0.725010  -0.012599  -0.040607 
87.500000000  -0.027900  -0.023179   0.628490  -0.739001   0.627469  -0.739280  -0.012834  -0.042176 
90.000000000  -0.029319  -0.022237   0.610354  -0.752178   0.610128  -0.753280  -0.014003  -0.042854 
92.500000000  -0.031146  -0.021309   0.591938  -0.765546   0.592230  -0.767507  -0.015486  -0.043603 
95.000000000  -0.032113  -0.020985   0.574135  -0.779278   0.574095  -0.780883  -0.015976  -0.044628 
97.500000000  -0.032480  -0.020192   0.555742  -0.792658   0.555467  -0.792801  -0.015991  -0.045096 
100.000000000  -0.033434  -0.018821   0.536300  -0.805045   0.536601  -0.804209  -0.016787  -0.045257 
102.500000000  -0.034886  -0.018165   0.517240  -0.816384   0.518176  -0.815879  -0.018079  -0.046254 
105.000000000  -0.035884  -0.018236   0.499004  -0.827023   0.499780  -0.827193  -0.018846  -0.047817 
107.500000000  -0.036462  -0.017531   0.480019  -0.837448   0.480270  -0.837559  -0.019248  -0.048550 
110.000000000  -0.037371  -0.015823   0.459781  -0.847959   0.459902  -0.847574  -0.020059  -0.048448 
112.500000000  -0.038568  -0.014509   0.439990  -0.858199   0.440242  -0.857784  -0.021146  -0.048870 
115.000000000  -0.039359  -0.013920   0.421222  -0.867361   0.421547  -0.867508  -0.021861  -0.050072 
117.500000000  -0.039536  -0.012708   0.401489  -0.875219   0.402164  -0.875929  -0.022121  -0.050764 
120.000000000  -0.039466  -0.010275   0.379824  -0.882589   0.381119  -0.883424  -0.022273  -0.050327 
122.500000000  -0.039505  -0.007733   0.358359  -0.890370   0.359490  -0.890957  -0.022586  -0.049717 
125.000000000  -0.039904  -0.006014   0.338796  -0.898478   0.338398  -0.898810  -0.023346  -0.049870 
127.500000000  -0.040680  -0.004634   0.319474  -0.906120   0.317400  -0.906558  -0.024624  -0.050472 
130.000000000  -0.041314  -0.002732   0.298230  -0.912776   0.295831  -0.913641  -0.025810  -0.050692 
132.500000000  -0.041229  -0.000250   0.275834  -0.918449   0.274102  -0.919479  -0.026236  -0.050343 
135.000000000  -0.040634   0.002314   0.254032  -0.923269   0.252586  -0.923776  -0.026194  -0.049870 
137.500000000  -0.040178   0.004690   0.232298  -0.927379   0.230616  -0.927162  -0.026497  -0.049572 
140.000000000  -0.039919   0.007017   0.209250  -0.931174   0.207754  -0.930900  -0.027258  -0.049288 
142.500000000  -0.039403   0.009479   0.185563  -0.935098   0.184862  -0.935441  -0.027972  -0.048859 
145.000000000  -0.038577   0.011902   0.162823  -0.939006   0.162816  -0.939697  -0.028486  -0.048587 
147.500000000  -0.037718   0.013883   0.140830  -0.941963   0.141121  -0.942175  -0.028951  -0.048848 
150.000000000  -0.036689   0.015424   0.118510  -0.943163   0.118777  -0.942660  -0.029165  -0.049397 
152.500000000  -0.035226   0.017100   0.096220  -0.943120   0.095756  -0.942492  -0.028960  -0.049568 
155.000000000  -0.033858   0.019303   0.074696  -0.943382   0.072796  -0.943207  -0.029047  -0.049226 
157.500000000  -0.033525   0.021631   0.052949  -0.944654   0.050430  -0.944938  -0.030415  -0.048965 
160.000000000  -0.034094   0.023524   0.029747  -0.945695   0.028748  -0.946189  -0.032812  -0.049176 
162.500000000  -0.034279   0.025126   0.006176  -0.944878   0.007386  -0.945528  -0.034806  -0.049476 
165.000000000  -0.033406   0.026862  -0.015887  -0.942493  -0.014509  -0.943331  -0.035690  -0.049521 
167.500000000  -0.032266   0.028568  -0.037069  -0.940255  -0.037490  -0.941175  -0.036324  -0.049714 
170.000000000  -0.031658   0.029892  -0.059493  -0.938692  -0.060816  -0.939524  -0.037611  -0.050347 
172.500000000  -0.031130   0.031288  -0.083143  -0.936548  -0.083265  -0.937215  -0.039187  -0.050653 
175.000000000  -0.029960   0.033538  -0.105901  -0.933148  -0.104934  -0.933608  -0.040341  -0.049799 
177.500000000  -0.028481   0.036324  -0.127041  -0.929468  -0.126971  -0.929731  -0.041291  -0.048460 
180.000000000  -0.027353   0.038479  -0.148060  -0.926004  -0.149497  -0.926323  -0.042543  -0.048029 
182.500000000  -0.026385   0.039827  -0.169986  -0.921522  -0.171377  -0.922272  -0.043909  -0.048399 
185.000000000  -0.025130   0.041419  -0.192265  -0.915274  -0.192386  -0.916468  -0.045142  -0.048163 
187.500000000  -0.023782   0.043573  -0.214541  -0.908692  -0.213820  -0.909862  -0.046579  -0.047113 
190.000000000  -0.022479   0.045284  -0.237227  -0.903084  -0.236269  -0.903874  -0.048205  -0.046595 
192.500000000  -0.020748   0.046194  -0.259848  -0.897339  -0.258491  -0.897969  -0.049288  -0.046956 
195.000000000  -0.018594   0.047504  -0.281004  -0.889943  -0.279447  -0.890744  -0.049821  -0.046770 
197.500000000  -0.016843   0.049913  -0.300667  -0.881736  -0.299910  -0.882436  -0.050843  -0.045361 
200.000000000  -0.015469   0.052313  -0.320642  -0.874311  -0.320908  -0.874236  -0.052400  -0.043999 
202.500000000  -0.013257   0.053686  -0.342014  -0.867007  -0.341997  -0.866037  -0.053158  -0.043592 
205.000000000  -0.010143   0.054667  -0.363677  -0.858070  -0.362359  -0.856937  -0.053018  -0.043306 
207.500000000  -0.007818   0.056040  -0.384059  -0.847804  -0.382386  -0.847195  -0.053767  -0.042462 
210.000000000  -0.006853   0.057238  -0.403127  -0.837837  -0.402797  -0.837510  -0.055954  -0.041787 
212.500000000  -0.005560   0.057671  -0.421961  -0.828039  -0.423222  -0.827186  -0.057721  -0.041723 
215.000000000  -0.002924   0.058126  -0.441289  -0.816995  -0.442957  -0.815329  -0.058037  -0.041354 
217.500000000  -0.000207   0.059525  -0.461003  -0.804942  -0.462216  -0.802990  -0.058338  -0.040026 
220.000000000   0.001653   0.061428  -0.480559  -0.793322  -0.481366  -0.791734  -0.059656  -0.038412 
222.500000000   0.003625   0.062824  -0.499471  -0.781839  -0.499834  -0.780902  -0.060921  -0.037246 
225.000000000   0.006352   0.063545  -0.517709  -0.769016  -0.517105  -0.768863  -0.061408  -0.036357 
227.500000000   0.008907   0.064241  -0.535608  -0.755442  -0.534013  -0.756054  -0.062079  -0.035306 
230.000000000   0.010956   0.065462  -0.553297  -0.743078  -0.551715  -0.743769  -0.063289  -0.033939 
232.500000000   0.013603   0.066847  -0.570613  -0.731244  -0.570025  -0.730826  -0.063882  -0.032472 
235.000000000   0.017141   0.067045  -0.587703  -0.716828  -0.587883  -0.715006  -0.063577  -0.031715 
237.500000000   0.020352   0.065351  -0.604938  -0.699266  -0.604868  -0.697444  -0.063679  -0.032226 
240.000000000   0.022791   0.063509  -0.622079  -0.681880  -0.621310  -0.681672  -0.064576  -0.032692 
242.500000000   0.025344   0.064039  -0.638387  -0.667061  -0.637432  -0.668227  -0.065155  -0.031052 
245.000000000   0.028166   0.066507  -0.653760  -0.653396  -0.653280  -0.654072  -0.065197  -0.027781 
247.500000000   0.030530   0.067801  -0.668865  -0.638583  -0.668921  -0.637689  -0.065733  -0.025722 
250.000000000   0.032568   0.066886  -0.683736  -0.622325  -0.683969  -0.620923  -0.066898  -0.025614 
252.500000000   0.034935   0.066141  -0.697626  -0.605139  -0.697776  -0.605013  -0.067788  -0.024967 
255.000000000   0.037274   0.066873  -0.710759  -0.587164  -0.710732  -0.588676  -0.068376  -0.022578 
257.500000000   0.039056   0.067265  -0.724460  -0.569400  -0.724205  -0.571363  -0.069333  -0.020520 
260.000000000   0.041111   0.066193  -0.738682  -0.553197  -0.738410  -0.554495  -0.070264  -0.020058 
262.500000000   0.044261   0.065203  -0.751381  -0.537453  -0.751683  -0.538070  -0.070290  -0.019440 
265.000000000   0.047505   0.065010  -0.761851  -0.519362  -0.763024  -0.519844  -0.069944  -0.017621 
267.500000000   0.049583   0.063848  -0.772601  -0.499052  -0.773900  -0.499586  -0.070469  -0.016446 
270.000000000   0.051084   0.061176  -0.785717  -0.479792  -0.785981  -0.480160  -0.071737  -0.016887 
272.500000000   0.053136   0.059175  -0.799158  -0.462499  -0.798364  -0.462497  -0.072644  -0.016827 
275.000000000   0.055503   0.058859  -0.809330  -0.444041  -0.808874  -0.443605  -0.072883  -0.014765 
277.500000000   0.057524   0.058211  -0.816332  -0.422798  -0.817342  -0.422039  -0.072980  -0.012517 
280.000000000   0.059419   0.055783  -0.823509  -0.401585  -0.825479  -0.400966  -0.073232  -0.012064 
282.500000000   0.061121   0.052621  -0.832434  -0.382688  -0.834058  -0.382799  -0.073969  -0.012741 
285.000000000   0.061556   0.049474  -0.841483  -0.364184  -0.842200  -0.364865  -0.075936  -0.013362 
287.500000000   0.060591   0.045622  -0.849232  -0.343959  -0.849475  -0.344074  -0.079061  -0.014223 
290.000000000   0.060017   0.041278  -0.856321  -0.323602  -0.856666  -0.322391  -0.081766  -0.015484 
292.500000000   0.061205   0.037966  -0.863390  -0.304734  -0.864106  -0.303121  -0.082745  -0.016033 
295.000000000   0.063260   0.035791  -0.869876  -0.285198  -0.870924  -0.284878  -0.082636  -0.015305 
297.500000000   0.064624   0.033176  -0.875676  -0.262926  -0.876626  -0.264106  -0.082970  -0.014374 
300.000000000   0.065175   0.029567  -0.881734  -0.240411  -0.882032  -0.241422  -0.084118  -0.014327 
302.500000000   0.065704   0.025746  -0.888158  -0.220823  -0.887863  -0.220348  -0.085331  -0.015119 
305.000000000   0.066348   0.021784  -0.893575  -0.202374  -0.893459  -0.201154  -0.086261  -0.016327 
307.500000000   0.066631   0.017471  -0.897211  -0.181176  -0.897719  -0.180804  -0.087350  -0.017311 
310.000000000   0.066573   0.014071  -0.899945  -0.157864  -0.900629  -0.158477  -0.088705  -0.016900 
312.500000000   0.067017   0.012711  -0.902600  -0.136245  -0.902966  -0.136588  -0.089431  -0.014741 
315.000000000   0.068614   0.011854  -0.904832  -0.116739  -0.905086  -0.116315  -0.088773  -0.012462 
317.500000000   0.070775   0.009069  -0.906380  -0.096194  -0.906847  -0.096057  -0.087452  -0.011856 
320.000000000   0.071962   0.004495  -0.907946  -0.073788  -0.908346  -0.074645  -0.087179  -0.012578 
322.500000000   0.071410   0.000088  -0.910021  -0.052195  -0.909942  -0.052803  -0.088633  -0.013135 
325.000000000   0.070128  -0.003619  -0.911918  -0.032523  -0.911460  -0.031071  -0.090651  -0.013220 
327.500000000   0.069474  -0.007464  -0.912699  -0.012607  -0.912082  -0.009291  -0.091894  -0.013380 
330.000000000   0.069443  -0.011551  -0.912371   0.008949  -0.911364   0.011888  -0.092428  -0.013581 
332.500000000   0.069210  -0.015464  -0.911416   0.030882  -0.909844   0.031700  -0.092954  -0.013665 
335.000000000   0.068474  -0.019433  -0.909862   0.052168  -0.908237   0.051226  -0.093600  -0.014013 
337.500000000   0.067350  -0.023531  -0.907479   0.073456  -0.906527   0.072162  -0.094319  -0.014471 
340.000000000   0.065956  -0.027005  -0.904557   0.094830  -0.904326   0.093958  -0.095317  -0.014130 
342.500000000   0.065054  -0.029771  -0.901786   0.115251  -0.901767   0.114683  -0.096097  -0.013114 
345.000000000   0.065623  -0.032880  -0.899275   0.134892  -0.899193   0.134325  -0.095498  -0.012638 
347.500000000   0.066802  -0.036341  -0.896060   0.155254  -0.895998   0.154642  -0.093883  -0.012525 
350.000000000   0.066182  -0.038638  -0.890947   0.176478  -0.890830   0.176085  -0.093484  -0.011105 
352.500000000   0.063513  -0.039545  -0.884091   0.197159  -0.883639   0.197394  -0.095004  -0.008377 
355.000000000   0.061733  -0.041090  -0.877262   0.217112  -0.876498   0.218027  -0.095933  -0.006533 
357.500000000   0.062640  -0.044298  -0.871843   0.237623  -0.871240   0.238555  -0.094227  -0.006270 
360.000000000   0.064095  -0.047514  -0.866974   0.258804  -0.866972   0.258970  -0.091534  -0.005643 
362.500000000   0.063549  -0.049386  -0.860660   0.279238  -0.861214   0.278771  -0.090511  -0.003735 
365.000000000   0.062071  -0.051150  -0.852714   0.298611  -0.853366   0.298489  -0.090642  -0.002350 
367.500000000   0.062094  -0.054189  -0.845056   0.318068  -0.845411   0.318766  -0.089635  -0.002598 
370.000000000   0.063213  -0.057512  -0.838631   0.337684  -0.838792   0.338409  -0.087450  -0.002817 
372.500000000   0.063187  -0.059546  -0.831788   0.356305  -0.832321   0.355914  -0.085932  -0.001507 
375.000000000   0.061695  -0.060668  -0.822776   0.374188  -0.824002   0.372645  -0.085462   0.000399 
377.500000000   0.060319  -0.062101  -0.812352   0.393043  -0.813729   0.391525  -0.084762   0.001766 
380.000000000   0.059613  -0.063802  -0.802284   0.413018  -0.802961   0.412563  -0.083490   0.003199 
382.500000000   0.058749  -0.065184  -0.792621   0.432359  -0.792657   0.432696  -0.082466   0.005154 
385.000000000   0.057431  -0.066690  -0.782246   0.450371  -0.782550   0.450322  -0.081786   0.006524 
387.500000000   0.056208  -0.069002  -0.771207   0.468185  -0.771916   0.467163  -0.080718   0.006631 
390.000000000   0.055213  -0.071509  -0.760465   0.486129  -0.760349   0.484943  -0.079214   0.006734 
392.500000000   0.053991  -0.073023  -0.749751   0.503096  -0.748057   0.503012  -0.077989   0.008095 
395.000000000   0.052267  -0.073513  -0.737716   0.519134  -0.735727   0.520260  -0.077375   0.010131 
397.500000000   0.050067  -0.074055  -0.724169   0.535930  -0.723715   0.536994  -0.077146   0.011601 
400.000000000   0.047573  -0.075312  -0.710329   0.553818  -0.711347   0.553669  -0.077000   0.012347 
402.500000000   0.045298  -0.076934  -0.696784   0.570911  -0.697700   0.569818  -0.076515   0.012989 
405.000000000   0.043682  -0.078272  -0.682939   0.586162  -0.683143   0.585308  -0.075384   0.013910 
407.500000000   0.042166  -0.079062  -0.668625   0.600912  -0.668971   0.600899  -0.074199   0.015243 
410.000000000   0.039597  -0.079383  -0.654506   0.616360  -0.655340   0.616679  -0.074063   0.017019 
412.500000000   0.035844  -0.079391  -0.640497   0.631735  -0.640883   0.631672  -0.075009   0.018924 
415.000000000   0.032112  -0.079294  -0.625468   0.646186  -0.624909   0.645705  -0.075749   0.020474 
417.500000000   0.029378  -0.079407  -0.609173   0.660335  -0.608688   0.659880  -0.075391   0.021611 
420.000000000   0.027290  -0.079988  -0.593017   0.674573  -0.593668   0.674380  -0.074482   0.022574 
422.500000000   0.024867  -0.080888  -0.577960   0.687777  -0.579351   0.687765  -0.074004   0.023376 
425.000000000   0.021605  -0.081526  -0.562847   0.699345  -0.563962   0.699541  -0.074240   0.024017 
427.500000000   0.017780  -0.081455  -0.545953   0.710855  -0.546639   0.711486  -0.074860   0.024993 
430.000000000   0.014028  -0.080861  -0.527485   0.723932  -0.528134   0.724979  -0.075486   0.026808 
432.500000000   0.010735  -0.080306  -0.509307   0.737786  -0.509787   0.738695  -0.075874   0.029056 
435.000000000   0.007738  -0.080020  -0.492361   0.750441  -0.492374   0.750521  -0.075869   0.030754 
437.500000000   0.004739  -0.079658  -0.475363   0.761287  -0.475491   0.760443  -0.075416   0.031666 
440.000000000   0.001861  -0.078845  -0.456610   0.771060  -0.457844   0.769991  -0.074564   0.032554 
442.500000000  -0.000758  -0.077690  -0.436524   0.780259  -0.438688   0.779825  -0.073683   0.034019 
445.000000000  -0.003647  -0.076586  -0.417329   0.789028  -0.419012   0.789412  -0.073478   0.035745 
447.500000000  -0.007371  -0.075689  -0.400122   0.797836  -0.400536   0.798457  -0.074231   0.037138 
450.000000000  -0.011322  -0.074821  -0.383338   0.806965  -0.383378   0.807196  -0.075072   0.038059 
452.500000000  -0.014234  -0.073937  -0.364776   0.815863  -0.365761   0.815627  -0.074747   0.038620 
455.000000000  -0.015992  -0.073273  -0.344337   0.823935  -0.346339   0.823528  -0.073227   0.038921 
457.500000000  -0.017825  -0.072653  -0.323661   0.831388  -0.325719   0.831044  -0.071770   0.039462 
460.000000000  -0.020525  -0.071188  -0.303687   0.838548  -0.305183   0.838480  -0.071242   0.041069 
462.500000000  -0.023550  -0.068439  -0.284060   0.845090  -0.285034   0.845675  -0.071206   0.043709 
465.000000000  -0.026117  -0.065508  -0.264530   0.850773  -0.264918   0.852199  -0.070872   0.046013 
467.500000000  -0.028240  -0.063881  -0.245314   0.856134  -0.244814   0.857943  -0.070166   0.046819 
470.000000000  -0.030339  -0.063305  -0.226069   0.861643  -0.224846   0.863086  -0.069466   0.046717 
472.500000000  -0.032614  -0.062077  -0.206053   0.866868  -0.204760   0.867684  -0.068920   0.047174 
475.000000000  -0.035023  -0.059526  -0.185450   0.871206  -0.184371   0.871719  -0.068424   0.048568 
477.500000000  -0.037311  -0.056867  -0.165126   0.874847  -0.163938   0.875382  -0.067821   0.050006 
480.000000000  -0.039028  -0.055203  -0.145008   0.878320  -0.143569   0.878926  -0.066843   0.050838 
482.500000000  -0.040032  -0.054024  -0.124242   0.881621  -0.122885   0.882341  -0.065329   0.051329 
