# GHz   S   DB   R   50
!%	Freq(GHz)	     S11(dB)	    S11(deg)	     S21(dB)	    S21(deg)	     S12(dB)	    S12(deg)	     S22(dB)	    S22(deg)
	2.000000000	      -9.280	     175.328	     -10.970	     101.143	     -57.081	     106.561	      -1.015	     177.843
	2.100000000	      -9.564	     170.305	      -9.126	      99.373	     -55.886	      85.949	      -1.010	     170.924
	2.200000000	      -9.827	     165.438	      -7.367	      95.686	     -56.156	      75.046	      -1.102	     163.877
	2.300000000	     -10.092	     160.617	      -5.964	      91.526	     -59.862	      69.928	      -1.247	     157.645
	2.400000000	     -10.327	     155.758	      -4.417	      87.439	     -58.312	      70.073	      -1.343	     150.688
	2.500000000	     -10.554	     151.075	      -3.002	      82.823	     -58.169	      68.271	      -1.479	     143.900
	2.600000000	     -10.745	     146.335	      -1.663	      78.055	     -58.522	      61.662	      -1.626	     137.108
	2.700000000	     -10.958	     141.737	      -0.357	      73.111	     -58.248	      57.986	      -1.790	     130.161
	2.800000000	     -11.153	     137.356	       0.899	      68.045	     -59.654	      58.072	      -1.963	     123.184
	2.900000000	     -11.349	     133.040	       2.144	      62.690	     -59.779	      56.315	      -2.157	     115.919
	3.000000000	     -11.524	     128.644	       3.364	      57.171	     -60.307	      53.806	      -2.362	     108.517
	3.100000000	     -11.725	     124.502	       4.555	      51.387	     -60.674	      51.694	      -2.583	     100.837
	3.200000000	     -11.903	     120.264	       5.730	      45.435	     -61.009	      52.380	      -2.818	      92.853
	3.300000000	     -12.106	     116.274	       6.898	      39.249	     -61.652	      52.377	      -3.075	      84.591
	3.400000000	     -12.293	     112.317	       8.030	      32.762	     -61.918	      53.385	      -3.349	      76.166
	3.500000000	     -12.463	     108.579	       9.132	      26.205	     -62.343	      55.291	      -3.616	      67.423
	3.600000000	     -12.662	     104.818	      10.232	      19.501	     -62.878	      61.825	      -3.871	      58.198
	3.700000000	     -12.908	     101.307	      11.346	      12.586	     -63.043	      64.828	      -4.139	      48.532
	3.800000000	     -13.134	      97.967	      12.455	       5.408	     -63.743	      74.981	      -4.392	      38.467
	3.900000000	     -13.375	      94.579	      13.567	      -2.151	     -62.346	      76.677	      -4.634	      27.717
	4.000000000	     -13.645	      91.359	      14.665	     -10.205	     -62.371	      85.074	      -4.893	      16.425
	4.100000000	     -13.935	      88.333	      15.742	     -18.592	     -61.213	      91.502	      -5.146	       4.722
	4.200000000	     -14.254	      85.532	      16.797	     -27.356	     -60.446	      94.328	      -5.365	      -7.449
	4.300000000	     -14.602	      82.826	      17.835	     -36.556	     -59.455	      94.704	      -5.545	     -20.266
	4.400000000	     -14.937	      80.506	      18.852	     -46.258	     -57.840	      93.212	      -5.687	     -33.754
	4.500000000	     -15.285	      77.942	      19.819	     -56.632	     -56.855	      90.192	      -5.844	     -47.893
	4.600000000	     -15.689	      75.698	      20.703	     -67.545	     -55.968	      89.111	      -6.005	     -62.259
	4.700000000	     -16.097	      73.878	      21.509	     -78.902	     -54.988	      85.708	      -6.172	     -76.714
	4.800000000	     -16.413	      71.912	      22.209	     -90.742	     -54.124	      82.088	      -6.356	     -91.068
	4.900000000	     -16.718	      69.537	      22.777	    -102.854	     -53.411	      77.505	      -6.618	    -105.057
	5.000000000	     -17.039	      66.871	      23.226	    -114.953	     -52.751	      69.770	      -6.909	    -118.166
	5.100000000	     -17.418	      63.951	      23.569	    -126.901	     -52.283	      63.711	      -7.230	    -130.005
	5.200000000	     -17.761	      60.341	      23.797	    -138.670	     -51.830	      57.222	      -7.588	    -140.885
	5.300000000	     -18.208	      56.351	      23.939	    -150.125	     -51.694	      51.290	      -7.942	    -150.404
	5.400000000	     -18.739	      52.397	      23.998	    -161.212	     -51.723	      45.278	      -8.325	    -158.479
	5.500000000	     -19.262	      47.644	      23.994	    -171.813	     -51.770	      41.353	      -8.703	    -164.857
	5.600000000	     -19.889	      42.397	      23.945	     178.056	     -51.722	      35.544	      -8.966	    -169.662
	5.700000000	     -20.654	      36.257	      23.888	     168.426	     -51.570	      28.969	      -9.108	    -173.462
	5.800000000	     -21.518	      30.048	      23.824	     159.178	     -51.782	      23.222	      -9.127	    -176.422
	5.900000000	     -22.493	      23.439	      23.755	     150.239	     -52.121	      17.641	      -9.036	    -178.896
	6.000000000	     -23.572	      16.124	      23.684	     141.627	     -52.248	      11.946	      -8.844	     178.809
	6.100000000	     -24.708	       7.043	      23.638	     133.379	     -52.394	       6.055	      -8.570	     176.997
	6.200000000	     -25.848	      -1.100	      23.611	     125.111	     -53.142	       1.920	      -8.180	     174.752
	6.300000000	     -27.356	     -16.451	      23.586	     116.999	     -52.728	      -1.702	      -7.758	     172.366
	6.400000000	     -29.766	     -26.053	      23.566	     109.040	     -53.208	     -13.635	      -7.369	     169.517
	6.500000000	     -30.309	     -38.108	      23.584	     101.275	     -54.496	     -20.673	      -6.961	     166.949
	6.600000000	     -31.382	     -54.909	      23.613	      93.271	     -55.694	     -25.818	      -6.530	     163.884
	6.700000000	     -31.705	     -72.995	      23.638	      85.481	     -56.036	     -24.553	      -6.154	     160.656
	6.800000000	     -31.832	     -87.764	      23.683	      77.651	     -57.114	     -30.571	      -5.791	     157.155
	6.900000000	     -30.957	    -106.188	      23.742	      69.800	     -58.045	     -34.165	      -5.475	     153.552
	7.000000000	     -30.321	    -123.957	      23.815	      61.878	     -58.224	     -40.127	      -5.186	     149.928
	7.100000000	     -29.365	    -138.894	      23.893	      53.869	     -59.137	     -44.939	      -4.938	     146.147
	7.200000000	     -28.557	    -150.075	      23.980	      45.629	     -60.443	     -50.256	      -4.723	     142.066
	7.300000000	     -27.482	    -163.476	      24.069	      37.348	     -60.142	     -60.433	      -4.571	     137.981
	7.400000000	     -27.143	    -175.252	      24.131	      28.864	     -62.544	     -81.347	      -4.469	     133.760
	7.500000000	     -26.078	     171.456	      24.228	      20.424	     -63.631	     -75.583	      -4.439	     129.750
	7.600000000	     -27.024	     156.632	      24.309	      11.268	     -61.884	    -110.191	      -4.317	     125.574
	7.700000000	     -27.492	     152.810	      24.297	       2.026	     -63.545	    -149.811	      -4.328	     120.340
	7.800000000	     -27.383	     147.929	      24.276	      -7.100	     -64.362	     177.059	      -4.453	     115.484
	7.900000000	     -27.418	     139.445	      24.220	     -16.450	     -62.893	     154.319	      -4.635	     110.769
	8.000000000	     -27.487	     132.505	      24.113	     -25.830	     -62.157	     138.346	      -4.875	     105.881
	8.100000000	     -28.206	     125.845	      23.961	     -35.065	     -60.495	     123.436	      -5.183	     101.319
	8.200000000	     -28.645	     119.648	      23.767	     -44.196	     -58.759	     108.928	      -5.528	      97.019
	8.300000000	     -29.536	     116.753	      23.545	     -53.230	     -58.036	     100.686	      -5.878	      92.803
	8.400000000	     -30.032	     114.441	      23.291	     -62.056	     -57.002	      90.751	      -6.262	      88.664
	8.500000000	     -30.851	     116.042	      23.016	     -70.746	     -56.490	      82.201	      -6.667	      84.886
	8.600000000	     -30.995	     118.579	      22.730	     -79.214	     -55.473	      73.841	      -7.044	      81.374
	8.700000000	     -30.951	     122.155	      22.418	     -87.450	     -55.098	      67.405	      -7.378	      77.964
	8.800000000	     -30.350	     125.704	      22.109	     -95.483	     -54.573	      60.067	      -7.676	      74.551
	8.900000000	     -29.592	     127.826	      21.799	    -103.267	     -54.011	      53.625	      -7.937	      71.319
	9.000000000	     -28.527	     128.771	      21.497	    -110.937	     -53.902	      46.322	      -8.167	      68.245
	9.100000000	     -27.782	     129.810	      21.204	    -118.510	     -54.127	      42.932	      -8.316	      64.787
	9.200000000	     -26.917	     130.033	      20.917	    -125.943	     -53.991	      39.479	      -8.438	      60.976
	9.300000000	     -26.019	     130.781	      20.645	    -133.232	     -53.370	      34.599	      -8.539	      57.123
	9.400000000	     -25.026	     130.258	      20.396	    -140.309	     -52.867	      31.171	      -8.545	      54.584
	9.500000000	     -23.903	     127.674	      20.177	    -147.491	     -52.705	      26.709	      -8.547	      50.659
	9.600000000	     -23.331	     124.888	      19.974	    -154.644	     -52.084	      20.603	      -8.451	      46.722
	9.700000000	     -22.700	     121.783	      19.799	    -161.728	     -52.015	      16.301	      -8.353	      43.905
	9.800000000	     -22.026	     119.368	      19.652	    -168.999	     -51.726	      11.981	      -8.184	      39.799
	9.900000000	     -21.356	     114.001	      19.527	    -176.355	     -51.277	       5.663	      -7.965	      35.826
	10.000000000	     -21.161	     111.697	      19.425	     176.175	     -51.171	      -0.408	      -7.726	      31.818
	10.100000000	     -20.640	     106.007	      19.353	     168.530	     -50.990	      -6.388	      -7.468	      28.089
	10.200000000	     -20.541	     101.870	      19.295	     160.621	     -50.764	     -11.772	      -7.139	      24.006
	10.300000000	     -20.052	      97.022	      19.254	     152.396	     -50.526	     -16.172	      -6.822	      19.643
	10.400000000	     -19.886	      93.648	      19.234	     143.854	     -50.206	     -22.240	      -6.517	      15.073
	10.500000000	     -19.929	      86.593	      19.211	     134.899	     -50.104	     -28.425	      -6.174	      10.376
	10.600000000	     -19.925	      81.706	      19.175	     125.457	     -49.908	     -35.839	      -5.846	       5.426
	10.700000000	     -20.037	      75.055	      19.116	     115.514	     -49.627	     -42.351	      -5.524	      -0.119
	10.800000000	     -20.270	      70.072	      19.005	     105.040	     -49.434	     -49.154	      -5.251	      -6.084
	10.900000000	     -20.613	      62.987	      18.832	      94.092	     -49.364	     -56.927	      -5.036	     -12.207
	11.000000000	     -21.321	      58.163	      18.569	      82.751	     -49.383	     -64.713	      -4.872	     -18.760
	11.100000000	     -22.187	      51.191	      18.200	      71.035	     -49.747	     -72.546	      -4.807	     -25.933
	11.200000000	     -23.236	      47.084	      17.709	      59.217	     -49.863	     -79.084	      -4.844	     -33.038
	11.300000000	     -24.488	      43.399	      17.091	      47.551	     -50.129	     -87.061	      -4.965	     -39.982
	11.400000000	     -25.501	      43.121	      16.350	      36.120	     -50.430	     -93.856	      -5.149	     -47.084
	11.500000000	     -26.979	      39.909	      15.516	      25.124	     -50.912	     -99.520	      -5.394	     -54.042
	11.600000000	     -27.875	      41.679	      14.611	      14.697	     -51.359	    -105.656	      -5.684	     -60.386
	11.700000000	     -29.011	      44.057	      13.656	       4.778	     -51.588	    -111.362	      -5.964	     -66.650
	11.800000000	     -29.298	      47.808	      12.658	      -4.581	     -52.173	    -117.562	      -6.196	     -72.804
	11.900000000	     -29.540	      46.543	      11.644	     -13.496	     -52.882	    -122.211	      -6.439	     -78.989
	12.000000000	     -29.623	      46.753	      10.622	     -21.889	     -53.519	    -124.151	      -6.648	     -84.877
	12.100000000	     -29.865	      45.923	       9.599	     -29.893	     -54.024	    -127.453	      -6.795	     -90.550
	12.200000000	     -29.391	      43.911	       8.588	     -37.517	     -53.873	    -131.195	      -6.859	     -96.182
	12.300000000	     -29.365	      37.941	       7.575	     -44.860	     -54.591	    -132.927	      -6.881	    -101.895
	12.400000000	     -29.357	      31.441	       6.590	     -51.983	     -54.845	    -136.874	      -6.880	    -107.613
	12.500000000	     -29.242	      25.943	       5.604	     -58.767	     -55.030	    -138.621	      -6.811	    -112.846
	12.600000000	     -29.206	      20.025	       4.634	     -65.436	     -55.393	    -141.821	      -6.681	    -118.166
	12.700000000	     -29.530	      12.770	       3.671	     -71.890	     -56.126	    -143.546	      -6.527	    -123.480
	12.800000000	     -29.234	       3.351	       2.720	     -78.214	     -56.277	    -144.930	      -6.362	    -128.403
	12.900000000	     -29.255	      -4.074	       1.779	     -84.341	     -56.429	    -142.470	      -6.152	    -133.178
	13.000000000	     -29.680	     -12.730	       0.833	     -90.343	     -55.697	    -148.008	      -5.905	    -137.893
	13.100000000	     -29.758	     -18.083	      -0.082	     -96.078	     -56.296	    -155.523	      -5.700	    -142.405
	13.200000000	     -29.218	     -27.075	      -0.975	    -101.796	     -57.655	    -159.406	      -5.480	    -146.603
	13.300000000	     -29.002	     -33.990	      -1.864	    -107.447	     -57.855	    -158.172	      -5.227	    -150.529
	13.400000000	     -28.504	     -44.199	      -2.757	    -113.034	     -58.377	    -155.373	      -4.988	    -154.761
	13.500000000	     -28.454	     -54.029	      -3.638	    -118.544	     -58.377	    -152.715	      -4.795	    -158.728
	13.600000000	     -28.447	     -64.782	      -4.514	    -123.905	     -58.734	    -151.087	      -4.587	    -162.388
	13.700000000	     -28.398	     -72.110	      -5.384	    -129.211	     -58.605	    -150.449	      -4.372	    -165.963
	13.800000000	     -27.954	     -82.438	      -6.245	    -134.390	     -58.712	    -149.725	      -4.172	    -169.607
	13.900000000	     -27.634	     -93.402	      -7.098	    -139.541	     -58.573	    -150.365	      -3.990	    -173.203
	14.000000000	     -27.013	    -107.834	      -7.940	    -144.605	     -58.501	    -149.220	      -3.835	    -176.534
	14.100000000	     -26.904	    -117.966	      -8.778	    -149.606	     -58.585	    -147.732	      -3.661	     179.951
	14.200000000	     -25.930	    -128.723	      -9.617	    -154.598	     -58.475	    -144.356	      -3.481	     176.545
	14.300000000	     -25.007	    -137.447	     -10.438	    -159.541	     -58.359	    -141.293	      -3.355	     173.012
	14.400000000	     -23.772	    -148.222	     -11.261	    -164.389	     -57.652	    -142.727	      -3.229	     169.826
	14.500000000	     -22.779	    -157.729	     -12.077	    -169.223	     -57.371	    -138.705	      -3.101	     166.591
	14.600000000	     -21.685	    -166.022	     -12.890	    -174.046	     -56.858	    -137.936	      -2.994	     163.003
	14.700000000	     -20.634	    -170.928	     -13.706	    -178.813	     -56.213	    -137.001	      -2.884	     159.716
	14.800000000	     -19.336	    -176.584	     -14.520	     176.446	     -55.620	    -136.013	      -2.782	     156.289
	14.900000000	     -18.260	     177.407	     -15.328	     171.782	     -54.628	    -134.346	      -2.691	     152.987
	15.000000000	     -17.289	     172.056	     -16.138	     167.147	     -53.750	    -135.438	      -2.605	     149.626
	15.100000000	     -16.361	     168.585	     -16.945	     162.538	     -52.771	    -135.502	      -2.508	     146.263
	15.200000000	     -15.360	     164.359	     -17.755	     158.027	     -51.743	    -137.179	      -2.440	     142.939
	15.300000000	     -14.624	     161.065	     -18.559	     153.520	     -50.748	    -140.392	      -2.356	     139.362
	15.400000000	     -13.687	     156.327	     -19.368	     149.104	     -49.838	    -142.668	      -2.284	     135.855
	15.500000000	     -12.884	     153.879	     -20.163	     144.691	     -48.797	    -145.515	      -2.227	     132.408
	15.600000000	     -12.277	     150.579	     -20.978	     140.524	     -47.828	    -148.181	      -2.136	     129.017
	15.700000000	     -11.560	     147.977	     -21.773	     136.507	     -46.401	    -152.553	      -2.064	     125.408
	15.800000000	     -10.946	     144.293	     -22.555	     132.692	     -45.165	    -157.870	      -2.027	     121.867
	15.900000000	     -10.309	     141.756	     -23.320	     129.092	     -43.764	    -163.976	      -1.957	     118.329
	16.000000000	      -9.827	     138.457	     -24.022	     125.877	     -42.259	    -172.024	      -1.899	     114.891
	16.100000000	      -9.278	     136.123	     -24.631	     122.782	     -40.720	     178.029	      -1.848	     111.234
	16.200000000	      -8.879	     133.514	     -25.047	     119.587	     -39.074	     164.606	      -1.821	     107.949
	16.300000000	      -8.497	     130.754	     -25.252	     114.832	     -37.719	     145.891	      -1.807	     104.651
	16.400000000	      -8.140	     128.578	     -25.549	     107.557	     -37.301	     123.964	      -1.752	     101.683
	16.500000000	      -7.686	     126.055	     -26.229	      99.209	     -37.985	     103.305	      -1.664	      98.648
	16.600000000	      -7.351	     123.469	     -27.150	      91.903	     -39.161	      87.331	      -1.569	      95.390
	16.700000000	      -6.999	     121.463	     -28.149	      85.787	     -40.517	      75.615	      -1.486	      92.338
	16.800000000	      -6.681	     118.629	     -29.146	      80.407	     -41.682	      67.343	      -1.391	      89.225
	16.900000000	      -6.394	     114.738	     -30.034	      75.217	     -42.431	      59.798	      -1.327	      86.170
	17.000000000	      -6.295	     111.995	     -30.885	      69.827	     -43.032	      51.777	      -1.242	      83.131